Sample in Buffer,Sample in Window,TRIGGER,probe0_pc[31:0],probe1_reset_uart[3:0],probe2_liveness[2:0],probe3_pc_activity[31:0],probe4_nice_csr[31:0],probe5_nice_hs[3:0],probe6_mem_status[2:0]
Radix - UNSIGNED,UNSIGNED,UNSIGNED,HEX,HEX,HEX,HEX,HEX,HEX,HEX
0,0,0,00000000,d,0,000e5182,00000000,4,4
1,1,0,00000000,d,0,000e5182,00000000,4,4
2,2,0,00000000,d,0,000e5182,00000000,4,4
3,3,0,00000000,d,0,000e5182,00000000,4,4
4,4,0,00000000,d,0,000e5182,00000000,4,4
5,5,0,00000000,d,0,000e5182,00000000,4,4
6,6,0,00000000,d,0,000e5182,00000000,4,4
7,7,0,00000000,d,0,000e5182,00000000,4,4
8,8,0,00000000,d,0,000e5182,00000000,4,4
9,9,0,00000000,d,0,000e5182,00000000,4,4
10,10,0,00000000,d,0,000e5182,00000000,4,4
11,11,0,00000000,d,0,000e5182,00000000,4,4
12,12,0,00000000,d,0,000e5182,00000000,4,4
13,13,0,00000000,d,0,000e5182,00000000,4,4
14,14,0,00000000,d,0,000e5182,00000000,4,4
15,15,0,00000000,d,0,000e5182,00000000,4,4
16,16,0,00000000,d,0,000e5182,00000000,4,4
17,17,0,00000000,d,0,000e5182,00000000,4,4
18,18,0,00000000,d,0,000e5182,00000000,4,4
19,19,0,00000000,d,0,000e5182,00000000,4,4
20,20,0,00000000,d,0,000e5182,00000000,4,4
21,21,0,00000000,d,0,000e5182,00000000,4,4
22,22,0,00000000,d,0,000e5182,00000000,4,4
23,23,0,00000002,d,0,000e5183,00000000,4,4
24,24,0,00000002,d,0,000e5183,00000000,4,4
25,25,0,00000002,d,0,000e5183,00000000,4,4
26,26,0,00000000,d,0,000e5184,00000000,4,4
27,27,0,00000000,d,0,000e5184,00000000,4,4
28,28,0,00000000,d,0,000e5184,00000000,4,4
29,29,0,00000000,d,0,000e5184,00000000,4,4
30,30,0,00000000,d,0,000e5184,00000000,4,4
31,31,0,00000000,d,0,000e5184,00000000,4,4
32,32,0,00000000,d,0,000e5184,00000000,4,4
33,33,0,00000000,d,0,000e5184,00000000,4,4
34,34,0,00000000,d,0,000e5184,00000000,4,4
35,35,0,00000000,d,0,000e5184,00000000,4,4
36,36,0,00000000,d,0,000e5184,00000000,4,4
37,37,0,00000000,d,0,000e5184,00000000,4,4
38,38,0,00000000,d,0,000e5184,00000000,4,4
39,39,0,00000000,d,0,000e5184,00000000,4,4
40,40,0,00000000,d,0,000e5184,00000000,4,4
41,41,0,00000000,d,0,000e5184,00000000,4,4
42,42,0,00000000,d,0,000e5184,00000000,4,4
43,43,0,00000000,d,0,000e5184,00000000,4,4
44,44,0,00000000,d,0,000e5184,00000000,4,4
45,45,0,00000000,d,0,000e5184,00000000,4,4
46,46,0,00000000,d,0,000e5184,00000000,4,4
47,47,0,00000000,d,0,000e5184,00000000,4,4
48,48,0,00000000,d,0,000e5184,00000000,4,4
49,49,0,00000000,d,0,000e5184,00000000,4,4
50,50,0,00000000,d,0,000e5184,00000000,4,4
51,51,0,00000000,d,0,000e5184,00000000,4,4
52,52,0,00000000,d,0,000e5184,00000000,4,4
53,53,0,00000000,d,0,000e5184,00000000,4,4
54,54,0,00000000,d,0,000e5184,00000000,4,4
55,55,0,00000000,d,0,000e5184,00000000,4,4
56,56,0,00000000,d,0,000e5184,00000000,4,4
57,57,0,00000000,d,0,000e5184,00000000,4,4
58,58,0,00000000,d,0,000e5184,00000000,4,4
59,59,0,00000000,d,0,000e5184,00000000,4,4
60,60,0,00000000,d,0,000e5184,00000000,4,4
61,61,0,00000000,d,0,000e5184,00000000,4,4
62,62,0,00000000,d,0,000e5184,00000000,4,4
63,63,0,00000000,d,0,000e5184,00000000,4,4
64,64,0,00000000,d,0,000e5184,00000000,4,4
65,65,0,00000000,d,0,000e5184,00000000,4,4
66,66,0,00000000,d,0,000e5184,00000000,4,4
67,67,0,00000000,d,0,000e5184,00000000,4,4
68,68,0,00000000,d,0,000e5184,00000000,4,4
69,69,0,00000000,d,0,000e5184,00000000,4,4
70,70,0,00000002,d,0,000e5185,00000000,4,4
71,71,0,00000002,d,0,000e5185,00000000,4,4
72,72,0,00000002,d,0,000e5185,00000000,4,4
73,73,0,00000000,d,0,000e5186,00000000,4,4
74,74,0,00000000,d,0,000e5186,00000000,4,4
75,75,0,00000000,d,0,000e5186,00000000,4,4
76,76,0,00000000,d,0,000e5186,00000000,4,4
77,77,0,00000000,d,0,000e5186,00000000,4,4
78,78,0,00000000,d,0,000e5186,00000000,4,4
79,79,0,00000000,d,0,000e5186,00000000,4,4
80,80,0,00000000,d,0,000e5186,00000000,4,4
81,81,0,00000000,d,0,000e5186,00000000,4,4
82,82,0,00000000,d,0,000e5186,00000000,4,4
83,83,0,00000000,d,0,000e5186,00000000,4,4
84,84,0,00000000,d,0,000e5186,00000000,4,4
85,85,0,00000000,d,0,000e5186,00000000,4,4
86,86,0,00000000,d,0,000e5186,00000000,4,4
87,87,0,00000000,d,0,000e5186,00000000,4,4
88,88,0,00000000,d,0,000e5186,00000000,4,4
89,89,0,00000000,d,0,000e5186,00000000,4,4
90,90,0,00000000,d,0,000e5186,00000000,4,4
91,91,0,00000000,d,0,000e5186,00000000,4,4
92,92,0,00000000,d,0,000e5186,00000000,4,4
93,93,0,00000000,d,0,000e5186,00000000,4,4
94,94,0,00000000,d,0,000e5186,00000000,4,4
95,95,0,00000000,d,0,000e5186,00000000,4,4
96,96,0,00000000,d,0,000e5186,00000000,4,4
97,97,0,00000000,d,0,000e5186,00000000,4,4
98,98,0,00000000,d,0,000e5186,00000000,4,4
99,99,0,00000000,d,0,000e5186,00000000,4,4
100,100,0,00000000,d,0,000e5186,00000000,4,4
101,101,0,00000000,d,0,000e5186,00000000,4,4
102,102,0,00000000,d,0,000e5186,00000000,4,4
103,103,0,00000000,d,0,000e5186,00000000,4,4
104,104,0,00000000,d,0,000e5186,00000000,4,4
105,105,0,00000000,d,0,000e5186,00000000,4,4
106,106,0,00000000,d,0,000e5186,00000000,4,4
107,107,0,00000000,d,0,000e5186,00000000,4,4
108,108,0,00000000,d,0,000e5186,00000000,4,4
109,109,0,00000000,d,0,000e5186,00000000,4,4
110,110,0,00000000,d,0,000e5186,00000000,4,4
111,111,0,00000000,d,0,000e5186,00000000,4,4
112,112,0,00000000,d,0,000e5186,00000000,4,4
113,113,0,00000000,d,0,000e5186,00000000,4,4
114,114,0,00000000,d,0,000e5186,00000000,4,4
115,115,0,00000000,d,0,000e5186,00000000,4,4
116,116,0,00000000,d,0,000e5186,00000000,4,4
117,117,0,00000002,d,0,000e5187,00000000,4,4
118,118,0,00000002,d,0,000e5187,00000000,4,4
119,119,0,00000002,d,0,000e5187,00000000,4,4
120,120,0,00000000,d,0,000e5188,00000000,4,4
121,121,0,00000000,d,0,000e5188,00000000,4,4
122,122,0,00000000,d,0,000e5188,00000000,4,4
123,123,0,00000000,d,0,000e5188,00000000,4,4
124,124,0,00000000,d,0,000e5188,00000000,4,4
125,125,0,00000000,d,0,000e5188,00000000,4,4
126,126,0,00000000,d,0,000e5188,00000000,4,4
127,127,0,00000000,d,0,000e5188,00000000,4,4
128,128,0,00000000,d,0,000e5188,00000000,4,4
129,129,0,00000000,d,0,000e5188,00000000,4,4
130,130,0,00000000,d,0,000e5188,00000000,4,4
131,131,0,00000000,d,0,000e5188,00000000,4,4
132,132,0,00000000,d,0,000e5188,00000000,4,4
133,133,0,00000000,d,0,000e5188,00000000,4,4
134,134,0,00000000,d,0,000e5188,00000000,4,4
135,135,0,00000000,d,0,000e5188,00000000,4,4
136,136,0,00000000,d,0,000e5188,00000000,4,4
137,137,0,00000000,d,0,000e5188,00000000,4,4
138,138,0,00000000,d,0,000e5188,00000000,4,4
139,139,0,00000000,d,0,000e5188,00000000,4,4
140,140,0,00000000,d,0,000e5188,00000000,4,4
141,141,0,00000000,d,0,000e5188,00000000,4,4
142,142,0,00000000,d,0,000e5188,00000000,4,4
143,143,0,00000000,d,0,000e5188,00000000,4,4
144,144,0,00000000,d,0,000e5188,00000000,4,4
145,145,0,00000000,d,0,000e5188,00000000,4,4
146,146,0,00000000,d,0,000e5188,00000000,4,4
147,147,0,00000000,d,0,000e5188,00000000,4,4
148,148,0,00000000,d,0,000e5188,00000000,4,4
149,149,0,00000000,d,0,000e5188,00000000,4,4
150,150,0,00000000,d,0,000e5188,00000000,4,4
151,151,0,00000000,d,0,000e5188,00000000,4,4
152,152,0,00000000,d,0,000e5188,00000000,4,4
153,153,0,00000000,d,0,000e5188,00000000,4,4
154,154,0,00000000,d,0,000e5188,00000000,4,4
155,155,0,00000000,d,0,000e5188,00000000,4,4
156,156,0,00000000,d,0,000e5188,00000000,4,4
157,157,0,00000000,d,0,000e5188,00000000,4,4
158,158,0,00000000,d,0,000e5188,00000000,4,4
159,159,0,00000000,d,0,000e5188,00000000,4,4
160,160,0,00000000,d,0,000e5188,00000000,4,4
161,161,0,00000000,d,0,000e5188,00000000,4,4
162,162,0,00000000,d,0,000e5188,00000000,4,4
163,163,0,00000000,d,0,000e5188,00000000,4,4
164,164,0,00000002,d,0,000e5189,00000000,4,4
165,165,0,00000002,d,0,000e5189,00000000,4,4
166,166,0,00000002,d,0,000e5189,00000000,4,4
167,167,0,00000000,d,0,000e518a,00000000,4,4
168,168,0,00000000,d,0,000e518a,00000000,4,4
169,169,0,00000000,d,0,000e518a,00000000,4,4
170,170,0,00000000,d,0,000e518a,00000000,4,4
171,171,0,00000000,d,0,000e518a,00000000,4,4
172,172,0,00000000,d,0,000e518a,00000000,4,4
173,173,0,00000000,d,0,000e518a,00000000,4,4
174,174,0,00000000,d,0,000e518a,00000000,4,4
175,175,0,00000000,d,0,000e518a,00000000,4,4
176,176,0,00000000,d,0,000e518a,00000000,4,4
177,177,0,00000000,d,0,000e518a,00000000,4,4
178,178,0,00000000,d,0,000e518a,00000000,4,4
179,179,0,00000000,d,0,000e518a,00000000,4,4
180,180,0,00000000,d,0,000e518a,00000000,4,4
181,181,0,00000000,d,0,000e518a,00000000,4,4
182,182,0,00000000,d,0,000e518a,00000000,4,4
183,183,0,00000000,d,0,000e518a,00000000,4,4
184,184,0,00000000,d,0,000e518a,00000000,4,4
185,185,0,00000000,d,0,000e518a,00000000,4,4
186,186,0,00000000,d,0,000e518a,00000000,4,4
187,187,0,00000000,d,0,000e518a,00000000,4,4
188,188,0,00000000,d,0,000e518a,00000000,4,4
189,189,0,00000000,d,0,000e518a,00000000,4,4
190,190,0,00000000,d,0,000e518a,00000000,4,4
191,191,0,00000000,d,0,000e518a,00000000,4,4
192,192,0,00000000,d,0,000e518a,00000000,4,4
193,193,0,00000000,d,0,000e518a,00000000,4,4
194,194,0,00000000,d,0,000e518a,00000000,4,4
195,195,0,00000000,d,0,000e518a,00000000,4,4
196,196,0,00000000,d,0,000e518a,00000000,4,4
197,197,0,00000000,d,0,000e518a,00000000,4,4
198,198,0,00000000,d,0,000e518a,00000000,4,4
199,199,0,00000000,d,0,000e518a,00000000,4,4
200,200,0,00000000,d,0,000e518a,00000000,4,4
201,201,0,00000000,d,0,000e518a,00000000,4,4
202,202,0,00000000,d,0,000e518a,00000000,4,4
203,203,0,00000000,d,0,000e518a,00000000,4,4
204,204,0,00000000,d,0,000e518a,00000000,4,4
205,205,0,00000000,d,0,000e518a,00000000,4,4
206,206,0,00000000,d,0,000e518a,00000000,4,4
207,207,0,00000000,d,0,000e518a,00000000,4,4
208,208,0,00000000,d,0,000e518a,00000000,4,4
209,209,0,00000000,d,0,000e518a,00000000,4,4
210,210,0,00000000,d,0,000e518a,00000000,4,4
211,211,0,00000002,d,0,000e518b,00000000,4,4
212,212,0,00000002,d,0,000e518b,00000000,4,4
213,213,0,00000002,d,0,000e518b,00000000,4,4
214,214,0,00000000,d,0,000e518c,00000000,4,4
215,215,0,00000000,d,0,000e518c,00000000,4,4
216,216,0,00000000,d,0,000e518c,00000000,4,4
217,217,0,00000000,d,0,000e518c,00000000,4,4
218,218,0,00000000,d,0,000e518c,00000000,4,4
219,219,0,00000000,d,0,000e518c,00000000,4,4
220,220,0,00000000,d,0,000e518c,00000000,4,4
221,221,0,00000000,d,0,000e518c,00000000,4,4
222,222,0,00000000,d,0,000e518c,00000000,4,4
223,223,0,00000000,d,0,000e518c,00000000,4,4
224,224,0,00000000,d,0,000e518c,00000000,4,4
225,225,0,00000000,d,0,000e518c,00000000,4,4
226,226,0,00000000,d,0,000e518c,00000000,4,4
227,227,0,00000000,d,0,000e518c,00000000,4,4
228,228,0,00000000,d,0,000e518c,00000000,4,4
229,229,0,00000000,d,0,000e518c,00000000,4,4
230,230,0,00000000,d,0,000e518c,00000000,4,4
231,231,0,00000000,d,0,000e518c,00000000,4,4
232,232,0,00000000,d,0,000e518c,00000000,4,4
233,233,0,00000000,d,0,000e518c,00000000,4,4
234,234,0,00000000,d,0,000e518c,00000000,4,4
235,235,0,00000000,d,0,000e518c,00000000,4,4
236,236,0,00000000,d,0,000e518c,00000000,4,4
237,237,0,00000000,d,0,000e518c,00000000,4,4
238,238,0,00000000,d,0,000e518c,00000000,4,4
239,239,0,00000000,d,0,000e518c,00000000,4,4
240,240,0,00000000,d,0,000e518c,00000000,4,4
241,241,0,00000000,d,0,000e518c,00000000,4,4
242,242,0,00000000,d,0,000e518c,00000000,4,4
243,243,0,00000000,d,0,000e518c,00000000,4,4
244,244,0,00000000,d,0,000e518c,00000000,4,4
245,245,0,00000000,d,0,000e518c,00000000,4,4
246,246,0,00000000,d,0,000e518c,00000000,4,4
247,247,0,00000000,d,0,000e518c,00000000,4,4
248,248,0,00000000,d,0,000e518c,00000000,4,4
249,249,0,00000000,d,0,000e518c,00000000,4,4
250,250,0,00000000,d,0,000e518c,00000000,4,4
251,251,0,00000000,d,0,000e518c,00000000,4,4
252,252,0,00000000,d,0,000e518c,00000000,4,4
253,253,0,00000000,d,0,000e518c,00000000,4,4
254,254,0,00000000,d,0,000e518c,00000000,4,4
255,255,0,00000000,d,0,000e518c,00000000,4,4
256,256,0,00000000,d,0,000e518c,00000000,4,4
257,257,0,00000000,d,0,000e518c,00000000,4,4
258,258,0,00000002,d,0,000e518d,00000000,4,4
259,259,0,00000002,d,0,000e518d,00000000,4,4
260,260,0,00000002,d,0,000e518d,00000000,4,4
261,261,0,00000000,d,0,000e518e,00000000,4,4
262,262,0,00000000,d,0,000e518e,00000000,4,4
263,263,0,00000000,d,0,000e518e,00000000,4,4
264,264,0,00000000,d,0,000e518e,00000000,4,4
265,265,0,00000000,d,0,000e518e,00000000,4,4
266,266,0,00000000,d,0,000e518e,00000000,4,4
267,267,0,00000000,d,0,000e518e,00000000,4,4
268,268,0,00000000,d,0,000e518e,00000000,4,4
269,269,0,00000000,d,0,000e518e,00000000,4,4
270,270,0,00000000,d,0,000e518e,00000000,4,4
271,271,0,00000000,d,0,000e518e,00000000,4,4
272,272,0,00000000,d,0,000e518e,00000000,4,4
273,273,0,00000000,d,0,000e518e,00000000,4,4
274,274,0,00000000,d,0,000e518e,00000000,4,4
275,275,0,00000000,d,0,000e518e,00000000,4,4
276,276,0,00000000,d,0,000e518e,00000000,4,4
277,277,0,00000000,d,0,000e518e,00000000,4,4
278,278,0,00000000,d,0,000e518e,00000000,4,4
279,279,0,00000000,d,0,000e518e,00000000,4,4
280,280,0,00000000,d,0,000e518e,00000000,4,4
281,281,0,00000000,d,0,000e518e,00000000,4,4
282,282,0,00000000,d,0,000e518e,00000000,4,4
283,283,0,00000000,d,0,000e518e,00000000,4,4
284,284,0,00000000,d,0,000e518e,00000000,4,4
285,285,0,00000000,d,0,000e518e,00000000,4,4
286,286,0,00000000,d,0,000e518e,00000000,4,4
287,287,0,00000000,d,0,000e518e,00000000,4,4
288,288,0,00000000,d,0,000e518e,00000000,4,4
289,289,0,00000000,d,0,000e518e,00000000,4,4
290,290,0,00000000,d,0,000e518e,00000000,4,4
291,291,0,00000000,d,0,000e518e,00000000,4,4
292,292,0,00000000,d,0,000e518e,00000000,4,4
293,293,0,00000000,d,0,000e518e,00000000,4,4
294,294,0,00000000,d,0,000e518e,00000000,4,4
295,295,0,00000000,d,0,000e518e,00000000,4,4
296,296,0,00000000,d,0,000e518e,00000000,4,4
297,297,0,00000000,d,0,000e518e,00000000,4,4
298,298,0,00000000,d,0,000e518e,00000000,4,4
299,299,0,00000000,d,0,000e518e,00000000,4,4
300,300,0,00000000,d,0,000e518e,00000000,4,4
301,301,0,00000000,d,0,000e518e,00000000,4,4
302,302,0,00000000,d,0,000e518e,00000000,4,4
303,303,0,00000000,d,0,000e518e,00000000,4,4
304,304,0,00000002,d,0,000e518f,00000000,4,4
305,305,0,00000002,d,0,000e518f,00000000,4,4
306,306,0,00000002,d,0,000e518f,00000000,4,4
307,307,0,00000002,d,0,000e518f,00000000,4,4
308,308,0,00000000,d,0,000e5190,00000000,4,4
309,309,0,00000000,d,0,000e5190,00000000,4,4
310,310,0,00000000,d,0,000e5190,00000000,4,4
311,311,0,00000000,d,0,000e5190,00000000,4,4
312,312,0,00000000,d,0,000e5190,00000000,4,4
313,313,0,00000000,d,0,000e5190,00000000,4,4
314,314,0,00000000,d,0,000e5190,00000000,4,4
315,315,0,00000000,d,0,000e5190,00000000,4,4
316,316,0,00000000,d,0,000e5190,00000000,4,4
317,317,0,00000000,d,0,000e5190,00000000,4,4
318,318,0,00000000,d,0,000e5190,00000000,4,4
319,319,0,00000000,d,0,000e5190,00000000,4,4
320,320,0,00000000,d,0,000e5190,00000000,4,4
321,321,0,00000000,d,0,000e5190,00000000,4,4
322,322,0,00000000,d,0,000e5190,00000000,4,4
323,323,0,00000000,d,0,000e5190,00000000,4,4
324,324,0,00000000,d,0,000e5190,00000000,4,4
325,325,0,00000000,d,0,000e5190,00000000,4,4
326,326,0,00000000,d,0,000e5190,00000000,4,4
327,327,0,00000000,d,0,000e5190,00000000,4,4
328,328,0,00000000,d,0,000e5190,00000000,4,4
329,329,0,00000000,d,0,000e5190,00000000,4,4
330,330,0,00000000,d,0,000e5190,00000000,4,4
331,331,0,00000000,d,0,000e5190,00000000,4,4
332,332,0,00000000,d,0,000e5190,00000000,4,4
333,333,0,00000000,d,0,000e5190,00000000,4,4
334,334,0,00000000,d,0,000e5190,00000000,4,4
335,335,0,00000000,d,0,000e5190,00000000,4,4
336,336,0,00000000,d,0,000e5190,00000000,4,4
337,337,0,00000000,d,0,000e5190,00000000,4,4
338,338,0,00000000,d,0,000e5190,00000000,4,4
339,339,0,00000000,d,0,000e5190,00000000,4,4
340,340,0,00000000,d,0,000e5190,00000000,4,4
341,341,0,00000000,d,0,000e5190,00000000,4,4
342,342,0,00000000,d,0,000e5190,00000000,4,4
343,343,0,00000000,d,0,000e5190,00000000,4,4
344,344,0,00000000,d,0,000e5190,00000000,4,4
345,345,0,00000000,d,0,000e5190,00000000,4,4
346,346,0,00000000,d,0,000e5190,00000000,4,4
347,347,0,00000000,d,0,000e5190,00000000,4,4
348,348,0,00000000,d,0,000e5190,00000000,4,4
349,349,0,00000000,d,0,000e5190,00000000,4,4
350,350,0,00000000,d,0,000e5190,00000000,4,4
351,351,0,00000002,d,0,000e5191,00000000,4,4
352,352,0,00000002,d,0,000e5191,00000000,4,4
353,353,0,00000002,d,0,000e5191,00000000,4,4
354,354,0,00000000,d,0,000e5192,00000000,4,4
355,355,0,00000000,d,0,000e5192,00000000,4,4
356,356,0,00000000,d,0,000e5192,00000000,4,4
357,357,0,00000000,d,0,000e5192,00000000,4,4
358,358,0,00000000,d,0,000e5192,00000000,4,4
359,359,0,00000000,d,0,000e5192,00000000,4,4
360,360,0,00000000,d,0,000e5192,00000000,4,4
361,361,0,00000000,d,0,000e5192,00000000,4,4
362,362,0,00000000,d,0,000e5192,00000000,4,4
363,363,0,00000000,d,0,000e5192,00000000,4,4
364,364,0,00000000,d,0,000e5192,00000000,4,4
365,365,0,00000000,d,0,000e5192,00000000,4,4
366,366,0,00000000,d,0,000e5192,00000000,4,4
367,367,0,00000000,d,0,000e5192,00000000,4,4
368,368,0,00000000,d,0,000e5192,00000000,4,4
369,369,0,00000000,d,0,000e5192,00000000,4,4
370,370,0,00000000,d,0,000e5192,00000000,4,4
371,371,0,00000000,d,0,000e5192,00000000,4,4
372,372,0,00000000,d,0,000e5192,00000000,4,4
373,373,0,00000000,d,0,000e5192,00000000,4,4
374,374,0,00000000,d,0,000e5192,00000000,4,4
375,375,0,00000000,d,0,000e5192,00000000,4,4
376,376,0,00000000,d,0,000e5192,00000000,4,4
377,377,0,00000000,d,0,000e5192,00000000,4,4
378,378,0,00000000,d,0,000e5192,00000000,4,4
379,379,0,00000000,d,0,000e5192,00000000,4,4
380,380,0,00000000,d,0,000e5192,00000000,4,4
381,381,0,00000000,d,0,000e5192,00000000,4,4
382,382,0,00000000,d,0,000e5192,00000000,4,4
383,383,0,00000000,d,0,000e5192,00000000,4,4
384,384,0,00000000,d,0,000e5192,00000000,4,4
385,385,0,00000000,d,0,000e5192,00000000,4,4
386,386,0,00000000,d,0,000e5192,00000000,4,4
387,387,0,00000000,d,0,000e5192,00000000,4,4
388,388,0,00000000,d,0,000e5192,00000000,4,4
389,389,0,00000000,d,0,000e5192,00000000,4,4
390,390,0,00000000,d,0,000e5192,00000000,4,4
391,391,0,00000000,d,0,000e5192,00000000,4,4
392,392,0,00000000,d,0,000e5192,00000000,4,4
393,393,0,00000000,d,0,000e5192,00000000,4,4
394,394,0,00000000,d,0,000e5192,00000000,4,4
395,395,0,00000000,d,0,000e5192,00000000,4,4
396,396,0,00000000,d,0,000e5192,00000000,4,4
397,397,0,00000000,d,0,000e5192,00000000,4,4
398,398,0,00000002,d,0,000e5193,00000000,4,4
399,399,0,00000002,d,0,000e5193,00000000,4,4
400,400,0,00000002,d,0,000e5193,00000000,4,4
401,401,0,00000000,d,0,000e5194,00000000,4,4
402,402,0,00000000,d,0,000e5194,00000000,4,4
403,403,0,00000000,d,0,000e5194,00000000,4,4
404,404,0,00000000,d,0,000e5194,00000000,4,4
405,405,0,00000000,d,0,000e5194,00000000,4,4
406,406,0,00000000,d,0,000e5194,00000000,4,4
407,407,0,00000000,d,0,000e5194,00000000,4,4
408,408,0,00000000,d,0,000e5194,00000000,4,4
409,409,0,00000000,d,0,000e5194,00000000,4,4
410,410,0,00000000,d,0,000e5194,00000000,4,4
411,411,0,00000000,d,0,000e5194,00000000,4,4
412,412,0,00000000,d,0,000e5194,00000000,4,4
413,413,0,00000000,d,0,000e5194,00000000,4,4
414,414,0,00000000,d,0,000e5194,00000000,4,4
415,415,0,00000000,d,0,000e5194,00000000,4,4
416,416,0,00000000,d,0,000e5194,00000000,4,4
417,417,0,00000000,d,0,000e5194,00000000,4,4
418,418,0,00000000,d,0,000e5194,00000000,4,4
419,419,0,00000000,d,0,000e5194,00000000,4,4
420,420,0,00000000,d,0,000e5194,00000000,4,4
421,421,0,00000000,d,0,000e5194,00000000,4,4
422,422,0,00000000,d,0,000e5194,00000000,4,4
423,423,0,00000000,d,0,000e5194,00000000,4,4
424,424,0,00000000,d,0,000e5194,00000000,4,4
425,425,0,00000000,d,0,000e5194,00000000,4,4
426,426,0,00000000,d,0,000e5194,00000000,4,4
427,427,0,00000000,d,0,000e5194,00000000,4,4
428,428,0,00000000,d,0,000e5194,00000000,4,4
429,429,0,00000000,d,0,000e5194,00000000,4,4
430,430,0,00000000,d,0,000e5194,00000000,4,4
431,431,0,00000000,d,0,000e5194,00000000,4,4
432,432,0,00000000,d,0,000e5194,00000000,4,4
433,433,0,00000000,d,0,000e5194,00000000,4,4
434,434,0,00000000,d,0,000e5194,00000000,4,4
435,435,0,00000000,d,0,000e5194,00000000,4,4
436,436,0,00000000,d,0,000e5194,00000000,4,4
437,437,0,00000000,d,0,000e5194,00000000,4,4
438,438,0,00000000,d,0,000e5194,00000000,4,4
439,439,0,00000000,d,0,000e5194,00000000,4,4
440,440,0,00000000,d,0,000e5194,00000000,4,4
441,441,0,00000000,d,0,000e5194,00000000,4,4
442,442,0,00000000,d,0,000e5194,00000000,4,4
